
Circuit: schmitt trigger

                                schmitt trigger
                                DC transfer characteristic  Sat Feb  5 16:05:05  2022
--------------------------------------------------------------------------------
Index   v-sweep         dc1.v(4)        dc2.v(4)        
--------------------------------------------------------------------------------
0	-6.00000e+00	5.165226e+00	-5.16523e+00	
1	-5.90000e+00	5.165224e+00	-5.16523e+00	
2	-5.80000e+00	5.165224e+00	-5.16523e+00	
3	-5.70000e+00	5.165224e+00	-5.16523e+00	
4	-5.60000e+00	5.165224e+00	-5.16523e+00	
5	-5.50000e+00	5.165224e+00	-5.16523e+00	
6	-5.40000e+00	5.165224e+00	-5.16523e+00	
7	-5.30000e+00	5.165224e+00	-5.16523e+00	
8	-5.20000e+00	5.165224e+00	-5.16523e+00	
9	-5.10000e+00	5.165224e+00	-5.16523e+00	
10	-5.00000e+00	5.165224e+00	-5.16523e+00	
11	-4.90000e+00	5.165224e+00	-5.16523e+00	
12	-4.80000e+00	5.165224e+00	-5.16523e+00	
13	-4.70000e+00	5.165224e+00	-5.16523e+00	
14	-4.60000e+00	5.165224e+00	-5.16523e+00	
15	-4.50000e+00	5.165224e+00	-5.16523e+00	
16	-4.40000e+00	5.165224e+00	-5.16523e+00	
17	-4.30000e+00	5.165224e+00	-5.16523e+00	
18	-4.20000e+00	5.165224e+00	-5.16523e+00	
19	-4.10000e+00	5.165224e+00	-5.16523e+00	
20	-4.00000e+00	5.165224e+00	-5.16523e+00	
21	-3.90000e+00	5.165224e+00	-5.16523e+00	
22	-3.80000e+00	5.165224e+00	-5.16523e+00	
23	-3.70000e+00	5.165224e+00	-5.16523e+00	
24	-3.60000e+00	5.165224e+00	-5.16523e+00	
25	-3.50000e+00	5.165224e+00	-5.16523e+00	
26	-3.40000e+00	5.165224e+00	-5.16523e+00	
27	-3.30000e+00	5.165224e+00	-5.16523e+00	
28	-3.20000e+00	5.165224e+00	-5.16523e+00	
29	-3.10000e+00	5.165224e+00	-5.16523e+00	
30	-3.00000e+00	5.165224e+00	-5.16523e+00	
31	-2.90000e+00	5.165224e+00	-5.16523e+00	
32	-2.80000e+00	5.165224e+00	-5.16523e+00	
33	-2.70000e+00	5.165224e+00	-5.16523e+00	
34	-2.60000e+00	5.165224e+00	-5.16523e+00	
35	-2.50000e+00	5.165224e+00	-5.16523e+00	
36	-2.40000e+00	5.165224e+00	-5.16522e+00	
37	-2.30000e+00	5.165224e+00	-5.16522e+00	
38	-2.20000e+00	5.165224e+00	-5.16522e+00	
39	-2.10000e+00	5.165224e+00	-5.16522e+00	
40	-2.00000e+00	5.165224e+00	-5.16522e+00	
41	-1.90000e+00	5.165224e+00	-5.16522e+00	
42	-1.80000e+00	5.165224e+00	-5.16522e+00	
43	-1.70000e+00	5.165224e+00	-5.16522e+00	
44	-1.60000e+00	5.165224e+00	-5.16522e+00	
45	-1.50000e+00	5.165224e+00	-5.16522e+00	
46	-1.40000e+00	5.165224e+00	-5.16522e+00	
47	-1.30000e+00	5.165224e+00	-5.16522e+00	
48	-1.20000e+00	5.165224e+00	-5.16522e+00	
49	-1.10000e+00	5.165224e+00	-5.16522e+00	
50	-1.00000e+00	5.165224e+00	-5.16522e+00	
51	-9.00000e-01	5.165224e+00	-5.16522e+00	
52	-8.00000e-01	5.165224e+00	-5.16522e+00	
53	-7.00000e-01	5.165224e+00	-5.16522e+00	
54	-6.00000e-01	5.165224e+00	-5.16522e+00	

Index   v-sweep         dc1.v(4)        dc2.v(4)        
--------------------------------------------------------------------------------
55	-5.00000e-01	5.165224e+00	-5.16522e+00	
56	-4.00000e-01	5.165224e+00	-5.16522e+00	
57	-3.00000e-01	5.165224e+00	-5.16522e+00	
58	-2.00000e-01	5.165224e+00	-5.16522e+00	
59	-1.00000e-01	5.165224e+00	-5.16522e+00	
60	-4.57967e-15	5.165224e+00	-5.16522e+00	
61	1.000000e-01	5.165224e+00	-5.16522e+00	
62	2.000000e-01	5.165224e+00	-5.16522e+00	
63	3.000000e-01	5.165224e+00	-5.16522e+00	
64	4.000000e-01	5.165224e+00	-5.16522e+00	
65	5.000000e-01	5.165224e+00	-5.16522e+00	
66	6.000000e-01	5.165224e+00	-5.16522e+00	
67	7.000000e-01	5.165224e+00	-5.16522e+00	
68	8.000000e-01	5.165224e+00	-5.16522e+00	
69	9.000000e-01	5.165224e+00	-5.16522e+00	
70	1.000000e+00	5.165224e+00	-5.16522e+00	
71	1.100000e+00	5.165224e+00	-5.16522e+00	
72	1.200000e+00	5.165224e+00	-5.16522e+00	
73	1.300000e+00	5.165224e+00	-5.16522e+00	
74	1.400000e+00	5.165224e+00	-5.16522e+00	
75	1.500000e+00	5.165224e+00	-5.16522e+00	
76	1.600000e+00	5.165224e+00	-5.16522e+00	
77	1.700000e+00	5.165224e+00	-5.16522e+00	
78	1.800000e+00	5.165224e+00	-5.16522e+00	
79	1.900000e+00	5.165224e+00	-5.16522e+00	
80	2.000000e+00	5.165224e+00	-5.16522e+00	
81	2.100000e+00	5.165224e+00	-5.16522e+00	
82	2.200000e+00	5.165224e+00	-5.16522e+00	
83	2.300000e+00	5.165224e+00	-5.16522e+00	
84	2.400000e+00	5.165223e+00	-5.16522e+00	
85	2.500000e+00	5.165181e+00	-5.16518e+00	
86	2.600000e+00	-5.16523e+00	5.165224e+00	
87	2.700000e+00	-5.16525e+00	5.165251e+00	
88	2.800000e+00	-5.16523e+00	5.165229e+00	
89	2.900000e+00	-5.16523e+00	5.165225e+00	
90	3.000000e+00	-5.16523e+00	5.165224e+00	
91	3.100000e+00	-5.16523e+00	5.165224e+00	
92	3.200000e+00	-5.16523e+00	5.165224e+00	
93	3.300000e+00	-5.16523e+00	5.165224e+00	
94	3.400000e+00	-5.16523e+00	5.165224e+00	
95	3.500000e+00	-5.16523e+00	5.165224e+00	
96	3.600000e+00	-5.16523e+00	5.165224e+00	
97	3.700000e+00	-5.16523e+00	5.165224e+00	
98	3.800000e+00	-5.16523e+00	5.165224e+00	
99	3.900000e+00	-5.16523e+00	5.165224e+00	
100	4.000000e+00	-5.16523e+00	5.165224e+00	
101	4.100000e+00	-5.16523e+00	5.165224e+00	
102	4.200000e+00	-5.16523e+00	5.165224e+00	
103	4.300000e+00	-5.16523e+00	5.165224e+00	
104	4.400000e+00	-5.16523e+00	5.165224e+00	
105	4.500000e+00	-5.16523e+00	5.165224e+00	
106	4.600000e+00	-5.16523e+00	5.165224e+00	
107	4.700000e+00	-5.16523e+00	5.165224e+00	
108	4.800000e+00	-5.16523e+00	5.165224e+00	
109	4.900000e+00	-5.16523e+00	5.165224e+00	
110	5.000000e+00	-5.16523e+00	5.165224e+00	
111	5.100000e+00	-5.16523e+00	5.165224e+00	
112	5.200000e+00	-5.16523e+00	5.165224e+00	

Index   v-sweep         dc1.v(4)        dc2.v(4)        
--------------------------------------------------------------------------------
113	5.300000e+00	-5.16523e+00	5.165224e+00	
114	5.400000e+00	-5.16523e+00	5.165224e+00	
115	5.500000e+00	-5.16523e+00	5.165224e+00	
116	5.600000e+00	-5.16523e+00	5.165224e+00	
117	5.700000e+00	-5.16523e+00	5.165224e+00	
118	5.800000e+00	-5.16523e+00	5.165224e+00	
119	5.900000e+00	-5.16523e+00	5.165224e+00	
120	6.000000e+00	-5.16523e+00	5.165224e+00	
