
Circuit: full wave precision rectifier

                         full wave precision rectifier
                         Transient Analysis  Sat Jan 29 13:19:27  2022
--------------------------------------------------------------------------------
Index   time            v(1)            v(6)            
--------------------------------------------------------------------------------
0	0.000000e+00	0.000000e+00	7.980638e-04	
1	1.000000e-08	3.141593e-04	7.979171e-04	
2	1.239726e-08	3.894715e-04	7.978375e-04	
3	1.719179e-08	5.400959e-04	7.975605e-04	
4	2.678083e-08	8.413447e-04	7.959673e-04	
5	4.595893e-08	1.443842e-03	7.856236e-04	
6	8.431512e-08	2.648838e-03	7.176334e-04	
7	1.200331e-07	3.770950e-03	5.783670e-04	
8	1.618587e-07	5.084941e-03	2.999614e-04	
9	2.117488e-07	6.652283e-03	-2.08822e-04	
10	2.813230e-07	8.838018e-03	-1.23984e-03	
11	3.716247e-07	1.167492e-02	-3.09119e-03	
12	5.070105e-07	1.592818e-02	-6.74647e-03	
13	6.691508e-07	2.102193e-02	-1.21198e-02	
14	8.762469e-07	2.752797e-02	-1.99194e-02	
15	1.114550e-06	3.501434e-02	-2.95632e-02	
16	1.374090e-06	4.316776e-02	-4.04234e-02	
17	1.709047e-06	5.369025e-02	-5.46334e-02	
18	2.173765e-06	6.828871e-02	-7.42286e-02	
19	2.426198e-06	7.621830e-02	-8.44032e-02	
20	2.585169e-06	8.121191e-02	-9.01768e-02	
21	2.705120e-06	8.497977e-02	-9.37835e-02	
22	2.824929e-06	8.874311e-02	-9.62241e-02	
23	2.965172e-06	9.314825e-02	-9.67898e-02	
24	3.115836e-06	9.788061e-02	-9.36963e-02	
25	3.256620e-06	1.023026e-01	-8.68135e-02	
26	3.407401e-06	1.070385e-01	-7.53170e-02	
27	3.565129e-06	1.119925e-01	-5.96635e-02	
28	3.779943e-06	1.187392e-01	-3.49744e-02	
29	3.966045e-06	1.245841e-01	-1.25934e-02	
30	4.148945e-06	1.303282e-01	8.589165e-03	
31	4.330999e-06	1.360456e-01	2.800240e-02	
32	4.610427e-06	1.448206e-01	5.393695e-02	
33	4.874435e-06	1.531110e-01	7.433852e-02	
34	5.210204e-06	1.636542e-01	9.565257e-02	
35	5.549008e-06	1.742919e-01	1.133206e-01	
36	6.038070e-06	1.896460e-01	1.346821e-01	
37	6.504137e-06	2.042766e-01	1.523481e-01	
38	7.011362e-06	2.201972e-01	1.701007e-01	
39	7.561370e-06	2.374581e-01	1.884947e-01	
40	8.289868e-06	2.603161e-01	2.122447e-01	
41	9.200607e-06	2.888846e-01	2.415093e-01	
42	1.020061e-05	3.202422e-01	2.734031e-01	
43	1.120061e-05	3.515871e-01	3.051632e-01	
44	1.220061e-05	3.829181e-01	3.368327e-01	
45	1.320061e-05	4.142340e-01	3.684324e-01	
46	1.420061e-05	4.455335e-01	3.999754e-01	
47	1.520061e-05	4.768155e-01	4.314698e-01	
48	1.620061e-05	5.080786e-01	4.629211e-01	
49	1.720061e-05	5.393217e-01	4.943331e-01	
50	1.820061e-05	5.705435e-01	5.257084e-01	
51	1.920061e-05	6.017427e-01	5.570486e-01	
52	2.020061e-05	6.329182e-01	5.883548e-01	
53	2.120061e-05	6.640688e-01	6.196275e-01	
54	2.220061e-05	6.951931e-01	6.508671e-01	

Index   time            v(1)            v(6)            
--------------------------------------------------------------------------------
55	2.320061e-05	7.262899e-01	6.820734e-01	
56	2.420061e-05	7.573581e-01	7.132463e-01	
57	2.520061e-05	7.883964e-01	7.443852e-01	
58	2.620061e-05	8.194035e-01	7.754897e-01	
59	2.720061e-05	8.503783e-01	8.065592e-01	
60	2.820061e-05	8.813196e-01	8.375928e-01	
61	2.920061e-05	9.122260e-01	8.685898e-01	
62	3.020061e-05	9.430965e-01	8.995493e-01	
63	3.120061e-05	9.739297e-01	9.304705e-01	
64	3.220061e-05	1.004724e+00	9.613523e-01	
65	3.320061e-05	1.035479e+00	9.921938e-01	
66	3.420061e-05	1.066194e+00	1.022994e+00	
67	3.520061e-05	1.096866e+00	1.053752e+00	
68	3.620061e-05	1.127495e+00	1.084466e+00	
69	3.720061e-05	1.158079e+00	1.115136e+00	
70	3.820061e-05	1.188618e+00	1.145761e+00	
71	3.920061e-05	1.219109e+00	1.176338e+00	
72	4.020061e-05	1.249553e+00	1.206868e+00	
73	4.120061e-05	1.279947e+00	1.237350e+00	
74	4.220061e-05	1.310291e+00	1.267781e+00	
75	4.320061e-05	1.340583e+00	1.298161e+00	
76	4.420061e-05	1.370822e+00	1.328489e+00	
77	4.520061e-05	1.401006e+00	1.358763e+00	
78	4.620061e-05	1.431136e+00	1.388983e+00	
79	4.720061e-05	1.461209e+00	1.419147e+00	
80	4.820061e-05	1.491225e+00	1.449255e+00	
81	4.920061e-05	1.521181e+00	1.479305e+00	
82	5.020061e-05	1.551078e+00	1.509295e+00	
83	5.120061e-05	1.580913e+00	1.539225e+00	
84	5.220061e-05	1.610686e+00	1.569094e+00	
85	5.320061e-05	1.640395e+00	1.598901e+00	
86	5.420061e-05	1.670039e+00	1.628644e+00	
87	5.520061e-05	1.699618e+00	1.658322e+00	
88	5.620061e-05	1.729129e+00	1.687934e+00	
89	5.720061e-05	1.758573e+00	1.717478e+00	
90	5.820061e-05	1.787946e+00	1.746955e+00	
91	5.920061e-05	1.817250e+00	1.776362e+00	
92	6.020061e-05	1.846481e+00	1.805699e+00	
93	6.120061e-05	1.875640e+00	1.834964e+00	
94	6.220061e-05	1.904724e+00	1.864156e+00	
95	6.320061e-05	1.933733e+00	1.893275e+00	
96	6.420061e-05	1.962666e+00	1.922318e+00	
97	6.520061e-05	1.991522e+00	1.951285e+00	
98	6.620061e-05	2.020299e+00	1.980174e+00	
99	6.720061e-05	2.048996e+00	2.008985e+00	
100	6.820061e-05	2.077612e+00	2.037717e+00	
101	6.920061e-05	2.106146e+00	2.066368e+00	
102	7.020061e-05	2.134597e+00	2.094937e+00	
103	7.120061e-05	2.162964e+00	2.123423e+00	
104	7.220061e-05	2.191245e+00	2.151825e+00	
105	7.320061e-05	2.219440e+00	2.180141e+00	
106	7.420061e-05	2.247548e+00	2.208372e+00	
107	7.520061e-05	2.275566e+00	2.236515e+00	
108	7.620061e-05	2.303495e+00	2.264569e+00	
109	7.720061e-05	2.331333e+00	2.292534e+00	
110	7.820061e-05	2.359078e+00	2.320408e+00	
111	7.920061e-05	2.386731e+00	2.348191e+00	
112	8.020061e-05	2.414289e+00	2.375880e+00	

Index   time            v(1)            v(6)            
--------------------------------------------------------------------------------
113	8.120061e-05	2.441752e+00	2.403476e+00	
114	8.220061e-05	2.469119e+00	2.430976e+00	
115	8.320061e-05	2.496388e+00	2.458380e+00	
116	8.420061e-05	2.523559e+00	2.485687e+00	
117	8.520061e-05	2.550630e+00	2.512896e+00	
118	8.620061e-05	2.577600e+00	2.540005e+00	
119	8.720061e-05	2.604469e+00	2.567014e+00	
120	8.820061e-05	2.631234e+00	2.593921e+00	
121	8.920061e-05	2.657896e+00	2.620726e+00	
122	9.020061e-05	2.684453e+00	2.647427e+00	
123	9.120061e-05	2.710904e+00	2.674024e+00	
124	9.220061e-05	2.737248e+00	2.700515e+00	
125	9.320061e-05	2.763484e+00	2.726899e+00	
126	9.420061e-05	2.789611e+00	2.753175e+00	
127	9.520061e-05	2.815627e+00	2.779343e+00	
128	9.620061e-05	2.841533e+00	2.805400e+00	
129	9.720061e-05	2.867326e+00	2.831347e+00	
130	9.820061e-05	2.893006e+00	2.857182e+00	
131	9.920061e-05	2.918572e+00	2.882904e+00	
132	1.002006e-04	2.944023e+00	2.908512e+00	
133	1.012006e-04	2.969357e+00	2.934005e+00	
134	1.022006e-04	2.994574e+00	2.959382e+00	
135	1.032006e-04	3.019673e+00	2.984642e+00	
136	1.042006e-04	3.044653e+00	3.009784e+00	
137	1.052006e-04	3.069513e+00	3.034807e+00	
138	1.062006e-04	3.094251e+00	3.059710e+00	
139	1.072006e-04	3.118867e+00	3.084493e+00	
140	1.082006e-04	3.143360e+00	3.109153e+00	
141	1.092006e-04	3.167729e+00	3.133691e+00	
142	1.102006e-04	3.191973e+00	3.158105e+00	
143	1.112006e-04	3.216091e+00	3.182394e+00	
144	1.122006e-04	3.240082e+00	3.206557e+00	
145	1.132006e-04	3.263945e+00	3.230594e+00	
146	1.142006e-04	3.287680e+00	3.254503e+00	
147	1.152006e-04	3.311284e+00	3.278283e+00	
148	1.162006e-04	3.334758e+00	3.301934e+00	
149	1.172006e-04	3.358100e+00	3.325455e+00	
150	1.182006e-04	3.381309e+00	3.348844e+00	
151	1.192006e-04	3.404385e+00	3.372101e+00	
152	1.202006e-04	3.427327e+00	3.395224e+00	
153	1.212006e-04	3.450133e+00	3.418214e+00	
154	1.222006e-04	3.472803e+00	3.441068e+00	
155	1.232006e-04	3.495336e+00	3.463787e+00	
156	1.242006e-04	3.517731e+00	3.486368e+00	
157	1.252006e-04	3.539987e+00	3.508812e+00	
158	1.262006e-04	3.562104e+00	3.531118e+00	
159	1.272006e-04	3.584080e+00	3.553283e+00	
160	1.282006e-04	3.605914e+00	3.575309e+00	
161	1.292006e-04	3.627606e+00	3.597193e+00	
162	1.302006e-04	3.649154e+00	3.618935e+00	
163	1.312006e-04	3.670559e+00	3.640535e+00	
164	1.322006e-04	3.691819e+00	3.661990e+00	
165	1.332006e-04	3.712933e+00	3.683301e+00	
166	1.342006e-04	3.733900e+00	3.704466e+00	
167	1.352006e-04	3.754720e+00	3.725485e+00	
168	1.362006e-04	3.775392e+00	3.746357e+00	
169	1.372006e-04	3.795915e+00	3.767081e+00	
170	1.382006e-04	3.816287e+00	3.787656e+00	

Index   time            v(1)            v(6)            
--------------------------------------------------------------------------------
171	1.392006e-04	3.836510e+00	3.808081e+00	
172	1.402006e-04	3.856580e+00	3.828356e+00	
173	1.412006e-04	3.876499e+00	3.848480e+00	
174	1.422006e-04	3.896264e+00	3.868452e+00	
175	1.432006e-04	3.915876e+00	3.888271e+00	
176	1.442006e-04	3.935333e+00	3.907936e+00	
177	1.452006e-04	3.954635e+00	3.927447e+00	
178	1.462006e-04	3.973780e+00	3.946803e+00	
179	1.472006e-04	3.992769e+00	3.966003e+00	
180	1.482006e-04	4.011600e+00	3.985047e+00	
181	1.492006e-04	4.030273e+00	4.003933e+00	
182	1.502006e-04	4.048786e+00	4.022661e+00	
183	1.512006e-04	4.067140e+00	4.041230e+00	
184	1.522006e-04	4.085333e+00	4.059639e+00	
185	1.532006e-04	4.103365e+00	4.077888e+00	
186	1.542006e-04	4.121235e+00	4.095976e+00	
187	1.552006e-04	4.138942e+00	4.113903e+00	
188	1.562006e-04	4.156486e+00	4.131667e+00	
189	1.572006e-04	4.173865e+00	4.149267e+00	
190	1.582006e-04	4.191080e+00	4.166704e+00	
191	1.592006e-04	4.208130e+00	4.183976e+00	
192	1.602006e-04	4.225013e+00	4.201083e+00	
193	1.612006e-04	4.241730e+00	4.218024e+00	
194	1.622006e-04	4.258279e+00	4.234799e+00	
195	1.632006e-04	4.274660e+00	4.251406e+00	
196	1.642006e-04	4.290872e+00	4.267845e+00	
197	1.652006e-04	4.306915e+00	4.284116e+00	
198	1.662006e-04	4.322788e+00	4.300218e+00	
199	1.672006e-04	4.338490e+00	4.316149e+00	
200	1.682006e-04	4.354021e+00	4.331911e+00	
201	1.692006e-04	4.369380e+00	4.347501e+00	
202	1.702006e-04	4.384566e+00	4.362919e+00	
203	1.712006e-04	4.399579e+00	4.378166e+00	
204	1.722006e-04	4.414419e+00	4.393239e+00	
205	1.732006e-04	4.429085e+00	4.408139e+00	
206	1.742006e-04	4.443575e+00	4.422865e+00	
207	1.752006e-04	4.457890e+00	4.437416e+00	
208	1.762006e-04	4.472029e+00	4.451792e+00	
209	1.772006e-04	4.485992e+00	4.465992e+00	
210	1.782006e-04	4.499778e+00	4.480015e+00	
211	1.792006e-04	4.513385e+00	4.493862e+00	
212	1.802006e-04	4.526815e+00	4.507531e+00	
213	1.812006e-04	4.540066e+00	4.521023e+00	
214	1.822006e-04	4.553138e+00	4.534336e+00	
215	1.832006e-04	4.566030e+00	4.547469e+00	
216	1.842006e-04	4.578741e+00	4.560423e+00	
217	1.852006e-04	4.591272e+00	4.573197e+00	
218	1.862006e-04	4.603622e+00	4.585791e+00	
219	1.872006e-04	4.615790e+00	4.598203e+00	
220	1.882006e-04	4.627776e+00	4.610434e+00	
221	1.892006e-04	4.639579e+00	4.622483e+00	
222	1.902006e-04	4.651199e+00	4.634349e+00	
223	1.912006e-04	4.662635e+00	4.646032e+00	
224	1.922006e-04	4.673887e+00	4.657532e+00	
225	1.932006e-04	4.684955e+00	4.668847e+00	
226	1.942006e-04	4.695838e+00	4.679979e+00	
227	1.952006e-04	4.706535e+00	4.690925e+00	
228	1.962006e-04	4.717046e+00	4.701687e+00	

Index   time            v(1)            v(6)            
--------------------------------------------------------------------------------
229	1.972006e-04	4.727372e+00	4.712262e+00	
230	1.982006e-04	4.737510e+00	4.722652e+00	
231	1.992006e-04	4.747462e+00	4.732855e+00	
232	2.002006e-04	4.757226e+00	4.742871e+00	
233	2.012006e-04	4.766803e+00	4.752700e+00	
234	2.022006e-04	4.776191e+00	4.762341e+00	
235	2.032006e-04	4.785391e+00	4.771794e+00	
236	2.042006e-04	4.794401e+00	4.781059e+00	
237	2.052006e-04	4.803223e+00	4.790135e+00	
238	2.062006e-04	4.811855e+00	4.799022e+00	
239	2.072006e-04	4.820297e+00	4.807719e+00	
240	2.082006e-04	4.828548e+00	4.816227e+00	
241	2.092006e-04	4.836609e+00	4.824544e+00	
242	2.102006e-04	4.844479e+00	4.832671e+00	
243	2.112006e-04	4.852158e+00	4.840607e+00	
244	2.122006e-04	4.859645e+00	4.848351e+00	
245	2.132006e-04	4.866941e+00	4.855905e+00	
246	2.142006e-04	4.874044e+00	4.863266e+00	
247	2.152006e-04	4.880955e+00	4.870436e+00	
248	2.162006e-04	4.887673e+00	4.877413e+00	
249	2.172006e-04	4.894198e+00	4.884198e+00	
250	2.182006e-04	4.900530e+00	4.890789e+00	
251	2.192006e-04	4.906668e+00	4.897188e+00	
252	2.202006e-04	4.912613e+00	4.903393e+00	
253	2.212006e-04	4.918364e+00	4.909405e+00	
254	2.222006e-04	4.923921e+00	4.915223e+00	
255	2.232006e-04	4.929283e+00	4.920846e+00	
256	2.242006e-04	4.934451e+00	4.926276e+00	
257	2.252006e-04	4.939424e+00	4.931510e+00	
258	2.262006e-04	4.944202e+00	4.936550e+00	
259	2.272006e-04	4.948784e+00	4.941396e+00	
260	2.282006e-04	4.953172e+00	4.946046e+00	
261	2.292006e-04	4.957363e+00	4.950500e+00	
262	2.302006e-04	4.961359e+00	4.954760e+00	
263	2.312006e-04	4.965160e+00	4.958823e+00	
264	2.322006e-04	4.968764e+00	4.962691e+00	
265	2.332006e-04	4.972172e+00	4.966363e+00	
266	2.342006e-04	4.975384e+00	4.969839e+00	
267	2.352006e-04	4.978399e+00	4.973118e+00	
268	2.362006e-04	4.981218e+00	4.976201e+00	
269	2.372006e-04	4.983840e+00	4.979088e+00	
270	2.382006e-04	4.986265e+00	4.981778e+00	
271	2.392006e-04	4.988494e+00	4.984271e+00	
272	2.402006e-04	4.990525e+00	4.986568e+00	
273	2.412006e-04	4.992360e+00	4.988668e+00	
274	2.422006e-04	4.993997e+00	4.990570e+00	
275	2.432006e-04	4.995438e+00	4.992276e+00	
276	2.442006e-04	4.996681e+00	4.993784e+00	
277	2.452006e-04	4.997727e+00	4.995095e+00	
278	2.462006e-04	4.998575e+00	4.996210e+00	
279	2.472006e-04	4.999227e+00	4.997126e+00	
280	2.482006e-04	4.999680e+00	4.997846e+00	
281	2.492006e-04	4.999937e+00	4.998368e+00	
282	2.502006e-04	4.999996e+00	4.998692e+00	
283	2.512006e-04	4.999858e+00	4.998820e+00	
284	2.522006e-04	4.999522e+00	4.998750e+00	
285	2.532006e-04	4.998989e+00	4.998482e+00	
286	2.542006e-04	4.998259e+00	4.998018e+00	

Index   time            v(1)            v(6)            
--------------------------------------------------------------------------------
287	2.552006e-04	4.997331e+00	4.997355e+00	
288	2.562006e-04	4.996206e+00	4.996496e+00	
289	2.572006e-04	4.994884e+00	4.995439e+00	
290	2.582006e-04	4.993364e+00	4.994185e+00	
291	2.592006e-04	4.991648e+00	4.992734e+00	
292	2.602006e-04	4.989734e+00	4.991086e+00	
293	2.612006e-04	4.987623e+00	4.989240e+00	
294	2.622006e-04	4.985316e+00	4.987198e+00	
295	2.632006e-04	4.982811e+00	4.984959e+00	
296	2.642006e-04	4.980110e+00	4.982522e+00	
297	2.652006e-04	4.977213e+00	4.979890e+00	
298	2.662006e-04	4.974119e+00	4.977060e+00	
299	2.672006e-04	4.970828e+00	4.974034e+00	
300	2.682006e-04	4.967341e+00	4.970812e+00	
301	2.692006e-04	4.963658e+00	4.967393e+00	
302	2.702006e-04	4.959780e+00	4.963778e+00	
303	2.712006e-04	4.955705e+00	4.959967e+00	
304	2.722006e-04	4.951435e+00	4.955961e+00	
305	2.732006e-04	4.946969e+00	4.951758e+00	
306	2.742006e-04	4.942308e+00	4.947360e+00	
307	2.752006e-04	4.937452e+00	4.942767e+00	
308	2.762006e-04	4.932401e+00	4.937979e+00	
309	2.772006e-04	4.927155e+00	4.932995e+00	
310	2.782006e-04	4.921715e+00	4.927817e+00	
311	2.792006e-04	4.916080e+00	4.922444e+00	
312	2.802006e-04	4.910251e+00	4.916877e+00	
313	2.812006e-04	4.904229e+00	4.911116e+00	
314	2.822006e-04	4.898013e+00	4.905161e+00	
315	2.832006e-04	4.891603e+00	4.899012e+00	
316	2.842006e-04	4.885001e+00	4.892670e+00	
317	2.852006e-04	4.878205e+00	4.886134e+00	
318	2.862006e-04	4.871217e+00	4.879406e+00	
319	2.872006e-04	4.864037e+00	4.872485e+00	
320	2.882006e-04	4.856664e+00	4.865372e+00	
321	2.892006e-04	4.849100e+00	4.858066e+00	
322	2.902006e-04	4.841345e+00	4.850569e+00	
323	2.912006e-04	4.833398e+00	4.842880e+00	
324	2.922006e-04	4.825260e+00	4.835000e+00	
325	2.932006e-04	4.816932e+00	4.826929e+00	
326	2.942006e-04	4.808414e+00	4.818668e+00	
327	2.952006e-04	4.799706e+00	4.810216e+00	
328	2.962006e-04	4.790809e+00	4.801574e+00	
329	2.972006e-04	4.781722e+00	4.792743e+00	
330	2.982006e-04	4.772447e+00	4.783722e+00	
331	2.992006e-04	4.762983e+00	4.774513e+00	
332	3.002006e-04	4.753331e+00	4.765115e+00	
333	3.012006e-04	4.743492e+00	4.755529e+00	
334	3.022006e-04	4.733465e+00	4.745755e+00	
335	3.032006e-04	4.723251e+00	4.735794e+00	
336	3.042006e-04	4.712851e+00	4.725645e+00	
337	3.052006e-04	4.702265e+00	4.715311e+00	
338	3.062006e-04	4.691494e+00	4.704790e+00	
339	3.072006e-04	4.680537e+00	4.694083e+00	
340	3.082006e-04	4.669395e+00	4.683191e+00	
341	3.092006e-04	4.658069e+00	4.672114e+00	
342	3.102006e-04	4.646559e+00	4.660852e+00	
343	3.112006e-04	4.634865e+00	4.649407e+00	
344	3.122006e-04	4.622989e+00	4.637778e+00	

Index   time            v(1)            v(6)            
--------------------------------------------------------------------------------
345	3.132006e-04	4.610930e+00	4.625966e+00	
346	3.142006e-04	4.598689e+00	4.613971e+00	
347	3.152006e-04	4.586267e+00	4.601794e+00	
348	3.162006e-04	4.573663e+00	4.589435e+00	
349	3.172006e-04	4.560879e+00	4.576895e+00	
350	3.182006e-04	4.547915e+00	4.564175e+00	
351	3.192006e-04	4.534771e+00	4.551274e+00	
352	3.202006e-04	4.521448e+00	4.538194e+00	
353	3.212006e-04	4.507947e+00	4.524934e+00	
354	3.222006e-04	4.494268e+00	4.511496e+00	
355	3.232006e-04	4.480411e+00	4.497879e+00	
356	3.242006e-04	4.466378e+00	4.484085e+00	
357	3.252006e-04	4.452168e+00	4.470114e+00	
358	3.262006e-04	4.437782e+00	4.455967e+00	
359	3.272006e-04	4.423222e+00	4.441643e+00	
360	3.282006e-04	4.408486e+00	4.427144e+00	
361	3.292006e-04	4.393577e+00	4.412471e+00	
362	3.302006e-04	4.378494e+00	4.397623e+00	
363	3.312006e-04	4.363238e+00	4.382601e+00	
364	3.322006e-04	4.347810e+00	4.367407e+00	
365	3.332006e-04	4.332210e+00	4.352040e+00	
366	3.342006e-04	4.316440e+00	4.336501e+00	
367	3.352006e-04	4.300499e+00	4.320791e+00	
368	3.362006e-04	4.284388e+00	4.304910e+00	
369	3.372006e-04	4.268108e+00	4.288860e+00	
370	3.382006e-04	4.251659e+00	4.272640e+00	
371	3.392006e-04	4.235043e+00	4.256252e+00	
372	3.402006e-04	4.218259e+00	4.239695e+00	
373	3.412006e-04	4.201309e+00	4.222971e+00	
374	3.422006e-04	4.184193e+00	4.206080e+00	
375	3.432006e-04	4.166912e+00	4.189023e+00	
376	3.442006e-04	4.149467e+00	4.171801e+00	
377	3.452006e-04	4.131857e+00	4.154414e+00	
378	3.462006e-04	4.114085e+00	4.136864e+00	
379	3.472006e-04	4.096150e+00	4.119149e+00	
380	3.482006e-04	4.078053e+00	4.101272e+00	
381	3.492006e-04	4.059795e+00	4.083234e+00	
382	3.502006e-04	4.041377e+00	4.065034e+00	
383	3.512006e-04	4.022800e+00	4.046673e+00	
384	3.522006e-04	4.004064e+00	4.028153e+00	
385	3.532006e-04	3.985169e+00	4.009474e+00	
386	3.542006e-04	3.966118e+00	3.990636e+00	
387	3.552006e-04	3.946909e+00	3.971641e+00	
388	3.562006e-04	3.927545e+00	3.952489e+00	
389	3.572006e-04	3.908026e+00	3.933181e+00	
390	3.582006e-04	3.888353e+00	3.913718e+00	
391	3.592006e-04	3.868526e+00	3.894100e+00	
392	3.602006e-04	3.848546e+00	3.874329e+00	
393	3.612006e-04	3.828414e+00	3.854405e+00	
394	3.622006e-04	3.808132e+00	3.834328e+00	
395	3.632006e-04	3.787699e+00	3.814100e+00	
396	3.642006e-04	3.767116e+00	3.793721e+00	
397	3.652006e-04	3.746385e+00	3.773193e+00	
398	3.662006e-04	3.725505e+00	3.752516e+00	
399	3.672006e-04	3.704479e+00	3.731691e+00	
400	3.682006e-04	3.683307e+00	3.710718e+00	
401	3.692006e-04	3.661989e+00	3.689599e+00	
402	3.702006e-04	3.640526e+00	3.668334e+00	

Index   time            v(1)            v(6)            
--------------------------------------------------------------------------------
403	3.712006e-04	3.618920e+00	3.646924e+00	
404	3.722006e-04	3.597171e+00	3.625370e+00	
405	3.732006e-04	3.575280e+00	3.603674e+00	
406	3.742006e-04	3.553247e+00	3.581835e+00	
407	3.752006e-04	3.531075e+00	3.559854e+00	
408	3.762006e-04	3.508763e+00	3.537733e+00	
409	3.772006e-04	3.486312e+00	3.515473e+00	
410	3.782006e-04	3.463724e+00	3.493073e+00	
411	3.792006e-04	3.440999e+00	3.470536e+00	
412	3.802006e-04	3.418139e+00	3.447862e+00	
413	3.812006e-04	3.395143e+00	3.425051e+00	
414	3.822006e-04	3.372013e+00	3.402106e+00	
