
Circuit: half wave precision rectifier

                         half wave precision rectifier
                         Transient Analysis  Sat Jan 29 13:17:03  2022
--------------------------------------------------------------------------------
Index   time            v(1)            v(5)            v(6)            
--------------------------------------------------------------------------------
0	0.000000e+00	0.000000e+00	1.283456e-01	7.612140e-05	
1	2.000000e-07	6.283184e-03	1.237701e-01	5.046901e-03	
2	2.054101e-07	6.453145e-03	1.236429e-01	5.184499e-03	
3	2.162302e-07	6.793069e-03	1.233813e-01	5.464755e-03	
4	2.378704e-07	7.472916e-03	1.228139e-01	6.043750e-03	
5	2.811509e-07	8.832610e-03	1.214853e-01	7.217839e-03	
6	3.677118e-07	1.155200e-02	1.179696e-01	9.540692e-03	
7	4.757255e-07	1.494534e-02	1.118657e-01	1.239889e-02	
8	6.340671e-07	1.991975e-02	9.935430e-02	1.657575e-02	
9	8.735658e-07	2.744374e-02	7.239056e-02	2.292485e-02	
10	1.352563e-06	4.249152e-02	-9.67122e-03	3.566944e-02	
11	1.744476e-06	5.480322e-02	-1.02858e-01	4.459957e-02	
12	1.995510e-06	6.268915e-02	-1.72639e-01	4.497017e-02	
13	2.223668e-06	6.985633e-02	-2.39055e-01	3.341798e-02	
14	2.519880e-06	7.916106e-02	-3.19053e-01	-4.02922e-04	
15	2.818148e-06	8.853009e-02	-3.81813e-01	-3.81883e-02	
16	2.985167e-06	9.377629e-02	-4.07305e-01	-5.51601e-02	
17	3.195286e-06	1.003761e-01	-4.31389e-01	-7.17446e-02	
18	3.385763e-06	1.063588e-01	-4.47765e-01	-8.31271e-02	
19	3.563102e-06	1.119288e-01	-4.60067e-01	-9.17612e-02	
20	3.757349e-06	1.180296e-01	-4.71577e-01	-9.98463e-02	
21	3.986011e-06	1.252111e-01	-4.83594e-01	-1.08342e-01	
22	4.233461e-06	1.329824e-01	-4.95565e-01	-1.16893e-01	
23	4.512735e-06	1.417528e-01	-5.08384e-01	-1.26186e-01	
24	4.863458e-06	1.527662e-01	-5.23891e-01	-1.37627e-01	
25	5.332596e-06	1.674971e-01	-5.43979e-01	-1.52771e-01	
26	6.018790e-06	1.890408e-01	-5.72413e-01	-1.74766e-01	
27	7.087148e-06	2.225757e-01	-6.15067e-01	-2.08808e-01	
28	8.905005e-06	2.796130e-01	-6.84563e-01	-2.66425e-01	
29	1.126217e-05	3.535164e-01	-7.71015e-01	-3.40745e-01	
30	1.510878e-05	4.739436e-01	-9.06979e-01	-4.61618e-01	
31	1.865147e-05	5.846130e-01	-1.02863e+00	-5.72495e-01	
32	2.573687e-05	8.050283e-01	-1.26580e+00	-7.93267e-01	
33	3.243049e-05	1.011798e+00	-1.48459e+00	-1.00019e+00	
34	4.374975e-05	1.357195e+00	-1.84532e+00	-1.34597e+00	
35	5.534324e-05	1.703831e+00	-2.20401e+00	-1.69283e+00	
36	7.423223e-05	2.248435e+00	-2.76369e+00	-2.23807e+00	
37	9.173973e-05	2.725120e+00	-3.25078e+00	-2.71531e+00	
38	1.117397e-04	3.229041e+00	-3.76432e+00	-3.22009e+00	
39	1.317397e-04	3.682039e+00	-4.22503e+00	-3.67396e+00	
40	1.517397e-04	4.076968e+00	-4.62635e+00	-4.06996e+00	
41	1.717397e-04	4.407601e+00	-4.96214e+00	-4.40168e+00	
42	1.917397e-04	4.668724e+00	-5.22752e+00	-4.66403e+00	
43	2.117397e-04	4.856218e+00	-5.41831e+00	-4.85274e+00	
44	2.317397e-04	4.967127e+00	-5.53173e+00	-4.96498e+00	
45	2.517397e-04	4.999701e+00	-5.56594e+00	-4.99883e+00	
46	2.717397e-04	4.953427e+00	-5.52052e+00	-4.95390e+00	
47	2.917397e-04	4.829035e+00	-5.39606e+00	-4.83076e+00	
48	3.117397e-04	4.628485e+00	-5.19457e+00	-4.63149e+00	
49	3.317397e-04	4.354942e+00	-4.91901e+00	-4.35911e+00	
50	3.517397e-04	4.012718e+00	-4.57365e+00	-4.01803e+00	
51	3.717397e-04	3.607212e+00	-4.16360e+00	-3.61352e+00	
52	3.917397e-04	3.144818e+00	-3.69503e+00	-3.15206e+00	
53	4.117397e-04	2.632828e+00	-3.17464e+00	-2.64085e+00	
54	4.317397e-04	2.079317e+00	-2.60971e+00	-2.08804e+00	

Index   time            v(1)            v(5)            v(6)            
--------------------------------------------------------------------------------
55	4.517397e-04	1.493014e+00	-2.00714e+00	-1.50230e+00	
56	4.717397e-04	8.831646e-01	-1.37096e+00	-8.93018e-01	
57	4.917397e-04	2.593876e-01	-6.86991e-01	-2.70272e-01	
58	4.978129e-04	6.870611e-02	-4.37359e-01	-8.32243e-02	
59	5.004785e-04	-1.50313e-02	-2.30669e-01	-2.14851e-02	
60	5.015302e-04	-4.80705e-02	-4.74993e-02	-4.18801e-02	
61	5.020967e-04	-6.58672e-02	1.113001e-01	-5.66930e-02	
62	5.023411e-04	-7.35441e-02	1.907791e-01	-5.67116e-02	
63	5.025386e-04	-7.97480e-02	2.534254e-01	-4.75907e-02	
64	5.027448e-04	-8.62246e-02	3.082576e-01	-2.84639e-02	
65	5.029060e-04	-9.12910e-02	3.381100e-01	-1.48321e-02	
66	5.029908e-04	-9.39526e-02	3.485401e-01	-9.69218e-03	
67	5.030866e-04	-9.69618e-02	3.567055e-01	-5.91006e-03	
68	5.031922e-04	-1.00280e-01	3.624330e-01	-3.47209e-03	
69	5.032673e-04	-1.02637e-01	3.650620e-01	-2.61713e-03	
70	5.033328e-04	-1.04696e-01	3.667500e-01	-2.19910e-03	
71	5.034021e-04	-1.06871e-01	3.681477e-01	-1.99421e-03	
72	5.034790e-04	-1.09286e-01	3.694240e-01	-1.91510e-03	
73	5.035605e-04	-1.11846e-01	3.706109e-01	-1.91975e-03	
74	5.036434e-04	-1.14452e-01	3.717446e-01	-1.95004e-03	
75	5.037369e-04	-1.17388e-01	3.729955e-01	-1.97961e-03	
76	5.038456e-04	-1.20800e-01	3.744477e-01	-1.98533e-03	
77	5.039859e-04	-1.25208e-01	3.763216e-01	-1.95290e-03	
78	5.041861e-04	-1.31495e-01	3.789436e-01	-1.86333e-03	
79	5.044794e-04	-1.40705e-01	3.825873e-01	-1.72079e-03	
80	5.048174e-04	-1.51322e-01	3.864692e-01	-1.58322e-03	
81	5.052081e-04	-1.63589e-01	3.905933e-01	-1.45550e-03	
82	5.059895e-04	-1.88121e-01	3.979440e-01	-1.24654e-03	
83	5.067232e-04	-2.11151e-01	4.039638e-01	-1.10240e-03	
84	5.078659e-04	-2.47013e-01	4.120982e-01	-9.24818e-04	
85	5.091445e-04	-2.87126e-01	4.198552e-01	-7.91111e-04	
86	5.106995e-04	-3.35881e-01	4.279237e-01	-6.63205e-04	
87	5.125568e-04	-3.94073e-01	4.361147e-01	-5.58347e-04	
88	5.156946e-04	-4.92262e-01	4.475080e-01	-4.29778e-04	
89	5.188664e-04	-5.91318e-01	4.568732e-01	-3.54887e-04	
90	5.231529e-04	-7.24807e-01	4.672870e-01	-2.71908e-04	
91	5.277043e-04	-8.65968e-01	4.763788e-01	-2.24779e-04	
92	5.347940e-04	-1.08440e+00	4.879048e-01	-1.59182e-04	
93	5.418943e-04	-1.30100e+00	4.972334e-01	-1.30305e-04	
94	5.560948e-04	-1.72601e+00	5.117795e-01	-7.05959e-05	
95	5.701942e-04	-2.13442e+00	5.227214e-01	-5.38885e-05	
96	5.901942e-04	-2.68428e+00	5.346044e-01	-1.30991e-05	
97	6.101942e-04	-3.19182e+00	5.435925e-01	-6.90044e-06	
98	6.301942e-04	-3.64902e+00	5.506266e-01	2.055214e-05	
99	6.501942e-04	-4.04867e+00	5.560394e-01	2.208050e-05	
100	6.701942e-04	-4.38447e+00	5.602225e-01	4.431037e-05	
101	6.901942e-04	-4.65112e+00	5.633127e-01	4.403597e-05	
102	7.101942e-04	-4.84443e+00	5.654695e-01	6.435893e-05	
103	7.301942e-04	-4.96133e+00	5.667202e-01	6.378790e-05	
104	7.501942e-04	-5.00000e+00	5.671482e-01	8.314724e-05	
105	7.701942e-04	-4.95981e+00	5.667235e-01	8.297889e-05	
106	7.901942e-04	-4.84139e+00	5.654746e-01	1.019861e-04	
107	8.101942e-04	-4.64663e+00	5.633209e-01	1.028158e-04	
108	8.301942e-04	-4.37859e+00	5.602289e-01	1.221996e-04	
109	8.501942e-04	-4.04150e+00	5.560430e-01	1.249997e-04	
110	8.701942e-04	-3.64066e+00	5.506189e-01	1.462487e-04	
111	8.901942e-04	-3.18242e+00	5.436339e-01	1.534192e-04	
112	9.101942e-04	-2.67398e+00	5.346537e-01	1.807824e-04	

Index   time            v(1)            v(5)            v(6)            
--------------------------------------------------------------------------------
113	9.301942e-04	-2.12337e+00	5.227314e-01	2.017346e-04	
114	9.501942e-04	-1.53928e+00	5.062623e-01	2.529178e-04	
115	9.701942e-04	-9.30913e-01	4.807021e-01	3.425631e-04	
116	9.901942e-04	-3.07863e-01	4.252626e-01	7.108967e-04	
117	9.965265e-04	-1.09113e-01	3.755212e-01	1.918104e-03	
118	9.992751e-04	-2.27743e-02	3.130640e-01	5.414696e-03	
119	1.000324e-03	1.017595e-02	2.510630e-01	1.415078e-02	
120	1.000930e-03	2.921543e-02	1.796116e-01	2.554219e-02	
121	1.001431e-03	4.495687e-02	8.569613e-02	3.818985e-02	
122	1.001970e-03	6.190085e-02	-5.52228e-02	5.213855e-02	
123	1.002361e-03	7.417574e-02	-1.78651e-01	5.244858e-02	
124	1.002613e-03	8.209158e-02	-2.61137e-01	3.129953e-02	
125	1.002915e-03	9.157653e-02	-3.47891e-01	-1.41742e-02	
126	1.003121e-03	9.803268e-02	-3.93136e-01	-4.37528e-02	
127	1.003268e-03	1.026706e-01	-4.17766e-01	-6.08972e-02	
128	1.003457e-03	1.086023e-01	-4.41574e-01	-7.78777e-02	
129	1.003685e-03	1.157515e-01	-4.62244e-01	-9.27904e-02	
130	1.003836e-03	1.204912e-01	-4.72766e-01	-1.00366e-01	
131	1.003998e-03	1.255812e-01	-4.82473e-01	-1.07366e-01	
132	1.004213e-03	1.323361e-01	-4.93850e-01	-1.15582e-01	
133	1.004422e-03	1.389092e-01	-5.03957e-01	-1.22926e-01	
134	1.004692e-03	1.473772e-01	-5.16262e-01	-1.31959e-01	
135	1.004983e-03	1.565227e-01	-5.29042e-01	-1.41474e-01	
136	1.005407e-03	1.698235e-01	-5.47092e-01	-1.55148e-01	
137	1.005946e-03	1.867436e-01	-5.69419e-01	-1.72424e-01	
138	1.006869e-03	2.157282e-01	-6.06481e-01	-2.01870e-01	
139	1.008300e-03	2.606240e-01	-6.61773e-01	-2.47256e-01	
140	1.010872e-03	3.413039e-01	-7.56965e-01	-3.28506e-01	
141	1.013633e-03	4.277844e-01	-8.55379e-01	-4.15288e-01	
142	1.017636e-03	5.529093e-01	-9.94036e-01	-5.40765e-01	
143	1.022021e-03	6.896014e-01	-1.14233e+00	-6.77641e-01	
144	1.029542e-03	9.227641e-01	-1.39068e+00	-9.11143e-01	
145	1.037292e-03	1.160870e+00	-1.64082e+00	-1.14939e+00	
146	1.048963e-03	1.514062e+00	-2.00812e+00	-1.50297e+00	
147	1.061194e-03	1.875454e+00	-2.38076e+00	-1.86464e+00	
148	1.080927e-03	2.434250e+00	-2.95376e+00	-2.42410e+00	
149	1.100927e-03	2.962439e+00	-3.49281e+00	-2.95299e+00	
150	1.120927e-03	3.443909e+00	-3.98295e+00	-3.43536e+00	
151	1.140927e-03	3.871066e+00	-4.41713e+00	-3.86345e+00	
152	1.160927e-03	4.237174e+00	-4.78907e+00	-4.23067e+00	
153	1.180927e-03	4.536459e+00	-5.09306e+00	-4.53108e+00	
154	1.200927e-03	4.764202e+00	-5.32463e+00	-4.76008e+00	
155	1.220927e-03	4.916810e+00	-5.48015e+00	-4.91393e+00	
156	1.240927e-03	4.991878e+00	-5.55735e+00	-4.99032e+00	
157	1.260927e-03	4.988220e+00	-5.55494e+00	-4.98795e+00	
158	1.280927e-03	4.905895e+00	-5.47308e+00	-4.90696e+00	
159	1.300927e-03	4.746202e+00	-5.31290e+00	-4.74851e+00	
160	1.320927e-03	4.511658e+00	-5.07696e+00	-4.51521e+00	
161	1.340927e-03	4.205962e+00	-4.76873e+00	-4.21066e+00	
162	1.360927e-03	3.833936e+00	-4.39297e+00	-3.83972e+00	
163	1.380927e-03	3.401446e+00	-3.95522e+00	-3.40819e+00	
164	1.400927e-03	2.915314e+00	-3.46198e+00	-2.92294e+00	
165	1.420927e-03	2.383205e+00	-2.92022e+00	-2.39156e+00	
166	1.440927e-03	1.813512e+00	-2.33721e+00	-1.82251e+00	
167	1.460927e-03	1.215219e+00	-1.71888e+00	-1.22476e+00	
168	1.480927e-03	5.977604e-01	-1.06621e+00	-6.07913e-01	
169	1.488799e-03	3.515886e-01	-7.94207e-01	-3.62418e-01	
170	1.494170e-03	1.831156e-01	-5.94788e-01	-1.94993e-01	

Index   time            v(1)            v(5)            v(6)            
--------------------------------------------------------------------------------
171	1.497355e-03	8.309168e-02	-4.60196e-01	-9.74080e-02	
172	1.498875e-03	3.533831e-02	-3.81532e-01	-5.38230e-02	
173	1.499711e-03	9.076243e-03	-3.26034e-01	-3.39091e-02	
174	1.500263e-03	-8.25403e-03	-2.77668e-01	-2.59865e-02	
175	1.500785e-03	-2.46638e-02	-2.13504e-01	-2.67395e-02	
176	1.501343e-03	-4.21833e-02	-1.11952e-01	-3.74246e-02	
177	1.501874e-03	-5.88646e-02	2.412371e-02	-5.15014e-02	
178	1.502257e-03	-7.09123e-02	1.442770e-01	-5.92009e-02	
179	1.502467e-03	-7.74887e-02	2.138534e-01	-5.61350e-02	
180	1.502636e-03	-8.28115e-02	2.671826e-01	-4.44941e-02	
181	1.502864e-03	-8.99734e-02	3.233624e-01	-2.24527e-02	
182	1.502962e-03	-9.30351e-02	3.397848e-01	-1.44183e-02	
183	1.503038e-03	-9.54477e-02	3.492451e-01	-9.86320e-03	
184	1.503152e-03	-9.90061e-02	3.587277e-01	-5.32235e-03	
185	1.503274e-03	-1.02838e-01	3.646690e-01	-2.91805e-03	
186	1.503342e-03	-1.04977e-01	3.667147e-01	-2.29629e-03	
187	1.503403e-03	-1.06907e-01	3.681131e-01	-2.01964e-03	
188	1.503473e-03	-1.09084e-01	3.693769e-01	-1.87612e-03	
189	1.503554e-03	-1.11639e-01	3.706178e-01	-1.84924e-03	
190	1.503630e-03	-1.14035e-01	3.716643e-01	-1.87748e-03	
191	1.503716e-03	-1.16744e-01	3.727999e-01	-1.92212e-03	
192	1.503808e-03	-1.19631e-01	3.740009e-01	-1.95248e-03	
193	1.503926e-03	-1.23339e-01	3.755521e-01	-1.95554e-03	
194	1.504073e-03	-1.27952e-01	3.774818e-01	-1.91387e-03	
195	1.504316e-03	-1.35584e-01	3.805900e-01	-1.80101e-03	
196	1.504583e-03	-1.43964e-01	3.838120e-01	-1.67593e-03	
197	1.504923e-03	-1.54644e-01	3.876206e-01	-1.54649e-03	
198	1.505331e-03	-1.67460e-01	3.918262e-01	-1.41878e-03	
199	1.506148e-03	-1.93089e-01	3.993073e-01	-1.21173e-03	
200	1.506922e-03	-2.17398e-01	4.054755e-01	-1.06585e-03	
201	1.508163e-03	-2.56323e-01	4.140074e-01	-8.90682e-04	
202	1.509562e-03	-3.00232e-01	4.221549e-01	-7.51839e-04	
203	1.511414e-03	-3.58288e-01	4.312380e-01	-6.17455e-04	
204	1.513525e-03	-4.24393e-01	4.399107e-01	-5.14170e-04	
205	1.516870e-03	-5.28993e-01	4.511876e-01	-3.95985e-04	
206	1.519940e-03	-6.24784e-01	4.596866e-01	-3.33449e-04	
207	1.523952e-03	-7.49651e-01	4.690098e-01	-2.61266e-04	
208	1.528486e-03	-8.90130e-01	4.777871e-01	-2.16923e-04	
209	1.535114e-03	-1.09421e+00	4.883652e-01	-1.57990e-04	
210	1.541973e-03	-1.30339e+00	4.973281e-01	-1.29327e-04	
211	1.555691e-03	-1.71411e+00	5.114222e-01	-7.25144e-05	
212	1.569079e-03	-2.10269e+00	5.219484e-01	-5.51414e-05	
213	1.589079e-03	-2.65467e+00	5.340283e-01	-1.49904e-05	
214	1.609079e-03	-3.16478e+00	5.431501e-01	-7.23502e-06	
215	1.629079e-03	-3.62499e+00	5.502821e-01	1.916829e-05	
216	1.649079e-03	-4.02802e+00	5.557727e-01	2.201918e-05	
217	1.669079e-03	-4.36753e+00	5.600190e-01	4.312351e-05	
218	1.689079e-03	-4.63816e+00	5.631663e-01	4.403912e-05	
219	1.709079e-03	-4.83564e+00	5.653733e-01	6.326579e-05	
220	1.729079e-03	-4.95687e+00	5.666728e-01	6.379352e-05	
221	1.749079e-03	-4.99992e+00	5.671464e-01	8.210147e-05	
222	1.769079e-03	-4.96412e+00	5.667690e-01	8.295231e-05	
223	1.789079e-03	-4.85003e+00	5.655672e-01	1.009541e-04	
224	1.809079e-03	-4.65945e+00	5.634652e-01	1.027224e-04	
225	1.829079e-03	-4.39539e+00	5.604284e-01	1.211349e-04	
226	1.849079e-03	-4.06202e+00	5.563072e-01	1.247755e-04	
227	1.869079e-03	-3.66458e+00	5.509587e-01	1.450490e-04	
228	1.889079e-03	-3.20935e+00	5.440705e-01	1.528942e-04	

Index   time            v(1)            v(5)            v(6)            
--------------------------------------------------------------------------------
229	1.909079e-03	-2.70351e+00	5.352191e-01	1.791354e-04	
230	1.929079e-03	-2.15503e+00	5.234921e-01	2.002237e-04	
231	1.949079e-03	-1.57256e+00	5.073544e-01	2.492416e-04	
232	1.969079e-03	-9.65297e-01	4.825371e-01	3.347948e-04	
233	1.989079e-03	-3.42809e-01	4.305993e-01	6.650544e-04	
234	1.995717e-03	-1.34541e-01	3.853570e-01	1.640593e-03	
235	1.998649e-03	-4.24399e-02	3.349576e-01	3.925052e-03	
236	1.999778e-03	-6.97490e-03	2.912487e-01	8.747384e-03	
237	2.000400e-03	1.258173e-02	2.458678e-01	1.546730e-02	
238	2.000966e-03	3.034238e-02	1.754742e-01	2.639281e-02	
239	2.001496e-03	4.701176e-02	7.212422e-02	3.995813e-02	
240	2.002037e-03	6.400622e-02	-7.40180e-02	5.351650e-02	
241	2.002405e-03	7.556668e-02	-1.91962e-01	5.068963e-02	
242	2.002655e-03	8.341092e-02	-2.73198e-01	2.627650e-02	
243	2.002995e-03	9.409118e-02	-3.66166e-01	-2.57391e-02	
244	2.003163e-03	9.935574e-02	-4.00234e-01	-4.86183e-02	
245	2.003304e-03	1.037857e-01	-4.22436e-01	-6.41792e-02	
246	2.003482e-03	1.093896e-01	-4.43950e-01	-7.95352e-02	
247	2.003716e-03	1.167211e-01	-4.64474e-01	-9.43868e-02	
248	2.003896e-03	1.223700e-01	-4.76500e-01	-1.03060e-01	
249	2.004077e-03	1.280814e-01	-4.86845e-01	-1.10516e-01	
250	2.004292e-03	1.348107e-01	-4.97738e-01	-1.18404e-01	
251	2.004504e-03	1.414805e-01	-5.07758e-01	-1.25701e-01	
252	2.004787e-03	1.503796e-01	-5.20502e-01	-1.35103e-01	
253	2.005109e-03	1.604647e-01	-5.34447e-01	-1.45538e-01	
254	2.005574e-03	1.750733e-01	-5.54085e-01	-1.60520e-01	
255	2.006203e-03	1.948379e-01	-5.79903e-01	-1.80660e-01	
256	2.007270e-03	2.283250e-01	-6.22218e-01	-2.14628e-01	
257	2.009079e-03	2.850622e-01	-6.91050e-01	-2.71910e-01	
258	2.011607e-03	3.643349e-01	-7.83442e-01	-3.51617e-01	
259	2.015494e-03	4.860052e-01	-9.20357e-01	-4.73705e-01	
260	2.019302e-03	6.049158e-01	-1.05072e+00	-5.92839e-01	
261	2.026918e-03	8.416303e-01	-1.30472e+00	-8.29908e-01	
262	2.034213e-03	1.066579e+00	-1.54201e+00	-1.05504e+00	
263	2.048803e-03	1.509288e+00	-2.00299e+00	-1.49818e+00	
264	2.062152e-03	1.903320e+00	-2.40948e+00	-1.89253e+00	
265	2.082152e-03	2.467799e+00	-2.98811e+00	-2.45768e+00	
266	2.102152e-03	2.993358e+00	-3.52432e+00	-2.98396e+00	
267	2.122152e-03	3.471711e+00	-4.01122e+00	-3.46322e+00	
268	2.142152e-03	3.895313e+00	-4.44177e+00	-3.88777e+00	
269	2.162152e-03	4.257483e+00	-4.80969e+00	-4.25104e+00	
270	2.182152e-03	4.552510e+00	-5.10937e+00	-4.54720e+00	
271	2.202152e-03	4.775742e+00	-5.33637e+00	-4.77169e+00	
272	2.222152e-03	4.923657e+00	-5.48715e+00	-4.92086e+00	
273	2.242152e-03	4.993923e+00	-5.55949e+00	-4.99245e+00	
274	2.262152e-03	4.985432e+00	-5.55221e+00	-4.98525e+00	
275	2.282152e-03	4.898318e+00	-5.46550e+00	-4.89946e+00	
276	2.302152e-03	4.733954e+00	-5.30060e+00	-4.73634e+00	
277	2.322152e-03	4.494933e+00	-5.06011e+00	-4.49856e+00	
278	2.342152e-03	4.185024e+00	-4.74761e+00	-4.18979e+00	
279	2.362152e-03	3.809115e+00	-4.36788e+00	-3.81496e+00	
280	2.382152e-03	3.373134e+00	-3.92653e+00	-3.37994e+00	
281	2.402152e-03	2.883957e+00	-3.43012e+00	-2.89163e+00	
282	2.422152e-03	2.349297e+00	-2.88562e+00	-2.35770e+00	
283	2.442152e-03	1.777589e+00	-2.30030e+00	-1.78662e+00	
284	2.462152e-03	1.177846e+00	-1.67995e+00	-1.18742e+00	
285	2.482152e-03	5.595280e-01	-1.02473e+00	-5.69733e-01	
286	2.490140e-03	3.095659e-01	-7.46067e-01	-3.20566e-01	

Index   time            v(1)            v(5)            v(6)            
--------------------------------------------------------------------------------
287	2.495585e-03	1.386877e-01	-5.37679e-01	-1.51162e-01	
288	2.498715e-03	4.035396e-02	-3.89726e-01	-5.75073e-02	
289	2.500059e-03	-1.86370e-03	-2.94866e-01	-2.73515e-02	
290	2.500749e-03	-2.35236e-02	-2.16464e-01	-2.61101e-02	
291	2.501254e-03	-3.93864e-02	-1.29013e-01	-3.52516e-02	
292	2.501841e-03	-5.78392e-02	1.646035e-02	-5.06034e-02	
293	2.502267e-03	-7.12136e-02	1.488885e-01	-5.91599e-02	
294	2.502482e-03	-7.79803e-02	2.202048e-01	-5.51580e-02	
295	2.502655e-03	-8.34157e-02	2.737430e-01	-4.23519e-02	
296	2.502881e-03	-9.04894e-02	3.270994e-01	-2.06365e-02	
297	2.502972e-03	-9.33526e-02	3.416435e-01	-1.34747e-02	
298	2.503048e-03	-9.57635e-02	3.506019e-01	-9.16361e-03	
299	2.503157e-03	-9.91816e-02	3.592399e-01	-5.06909e-03	
300	2.503293e-03	-1.03449e-01	3.654190e-01	-2.64275e-03	
301	2.503357e-03	-1.05457e-01	3.671544e-01	-2.16947e-03	
302	2.503417e-03	-1.07355e-01	3.684293e-01	-1.95686e-03	
303	2.503488e-03	-1.09560e-01	3.696374e-01	-1.85413e-03	
304	2.503567e-03	-1.12062e-01	3.708097e-01	-1.85140e-03	
305	2.503645e-03	-1.14505e-01	3.718597e-01	-1.88791e-03	
306	2.503732e-03	-1.17246e-01	3.730033e-01	-1.93268e-03	
307	2.503829e-03	-1.20273e-01	3.742640e-01	-1.95899e-03	
308	2.503952e-03	-1.24158e-01	3.758927e-01	-1.95301e-03	
309	2.504113e-03	-1.29210e-01	3.780024e-01	-1.89793e-03	
310	2.504405e-03	-1.38385e-01	3.816906e-01	-1.75760e-03	
311	2.504726e-03	-1.48448e-01	3.854502e-01	-1.61719e-03	
312	2.505062e-03	-1.58995e-01	3.890888e-01	-1.50088e-03	
313	2.505577e-03	-1.75167e-01	3.941949e-01	-1.35040e-03	
314	2.506420e-03	-2.01646e-01	4.015646e-01	-1.15416e-03	
315	2.507381e-03	-2.31805e-01	4.088019e-01	-9.96283e-04	
316	2.508466e-03	-2.65851e-01	4.158895e-01	-8.57730e-04	
317	2.509856e-03	-3.09447e-01	4.237106e-01	-7.26736e-04	
318	2.511944e-03	-3.74882e-01	4.335601e-01	-5.86835e-04	
319	2.514542e-03	-4.56230e-01	4.436144e-01	-4.72929e-04	
320	2.517426e-03	-5.46368e-01	4.528354e-01	-3.85271e-04	
321	2.521443e-03	-6.71617e-01	4.633875e-01	-3.01052e-04	
322	2.526198e-03	-8.19316e-01	4.735495e-01	-2.37808e-04	
323	2.532754e-03	-1.02176e+00	4.848535e-01	-1.75939e-04	
324	2.539854e-03	-1.23899e+00	4.947305e-01	-1.37099e-04	
