
Circuit: zener regulator analysis

                            zener regulator analysis
                            DC transfer characteristic  Sun Jan 23 15:03:00  2022
--------------------------------------------------------------------------------
Index   v-sweep         i(vdummyil)     i(vdummyis)     i(vdummyiz)     
--------------------------------------------------------------------------------
0	1.500000e+01	1.020408e-02	1.020408e-02	3.710268e-11	
1	1.550000e+01	1.054422e-02	1.054422e-02	3.778295e-11	
2	1.600000e+01	1.088435e-02	1.088435e-02	3.849787e-11	
3	1.650000e+01	1.122449e-02	1.122449e-02	9.754691e-11	
4	1.700000e+01	1.156459e-02	1.156469e-02	9.838411e-08	
5	1.750000e+01	1.187787e-02	1.196197e-02	8.409802e-05	
6	1.800000e+01	1.200973e-02	1.274526e-02	7.355326e-04	
7	1.850000e+01	1.208601e-02	1.364678e-02	1.560762e-03	
8	1.900000e+01	1.214904e-02	1.457651e-02	2.427471e-03	
9	1.950000e+01	1.220753e-02	1.551589e-02	3.308364e-03	
10	2.000000e+01	1.226282e-02	1.646208e-02	4.199255e-03	
11	2.050000e+01	1.231638e-02	1.741195e-02	5.095567e-03	
12	2.100000e+01	1.236880e-02	1.836426e-02	5.995462e-03	
13	2.150000e+01	1.242034e-02	1.931842e-02	6.898083e-03	
14	2.200000e+01	1.247121e-02	2.027401e-02	7.802798e-03	
15	2.250000e+01	1.252156e-02	2.123072e-02	8.709161e-03	
16	2.300000e+01	1.257148e-02	2.218833e-02	9.616852e-03	
17	2.350000e+01	1.262105e-02	2.314669e-02	1.052564e-02	
18	2.400000e+01	1.267033e-02	2.410567e-02	1.143534e-02	
19	2.450000e+01	1.271937e-02	2.506518e-02	1.234582e-02	
20	2.500000e+01	1.276818e-02	2.602514e-02	1.325696e-02	
